T4288 000:044.283   SEGGER J-Link V6.80 Log File
T4288 000:044.498   DLL Compiled: May 25 2020 17:04:25
T4288 000:044.506   Logging started @ 2021-03-28 17:00
T4288 000:044.517 JLINK_SetWarnOutHandler(...)
T4288 000:044.526 - 0.012ms
T4288 000:044.537 JLINK_OpenEx(...)
T4288 000:046.193   Firmware: J-Link ARM-OB STM32 compiled Aug 22 2012 19:52:04
T4288 000:048.974   Hardware: V7.00
T4288 000:049.010   S/N: 20090928
T4288 000:049.028   OEM: SEGGER
T4288 000:049.045   Feature(s): RDI,FlashDL,FlashBP,JFlash,GDBFull
T4288 000:050.525   TELNET listener socket opened on port 19021
T4288 000:050.718   WEBSRV Starting webserver
T4288 000:050.957   WEBSRV Webserver running on local port 19080
T4288 000:050.980 - 6.450ms returns "O.K."
T4288 000:051.011 JLINK_SetErrorOutHandler(...)
T4288 000:051.023 - 0.017ms
T4288 000:051.055 JLINK_ExecCommand("ProjectFile = "F:\Nordic\nRF5_SDK_15.2.0\examples\ble_central\ble_app_uart_c\pca10040\s132\arm5_no_packs\JLinkSettings.ini"", ...). 
T4288 000:062.868   Ref file found at: F:\Keil5\ARM\Segger\JLinkDevices.ref
T4288 000:063.070   XML referenced by ref file: C:\Program Files (x86)\SEGGER\JLink\JLinkDevices.xml
T4288 000:064.074   C:\Program Files (x86)\SEGGER\JLink\JLinkDevices.xml evaluated successfully.
T4288 000:134.618 - 83.587ms returns 0x00
T4288 000:137.935 JLINK_ExecCommand("Device = nRF52832_xxAA", ...). 
T4288 000:141.125   Device "NRF52832_XXAA" selected.
T4288 000:142.560 - 4.612ms returns 0x00
T4288 000:142.591 JLINK_ExecCommand("DisableConnectionTimeout", ...). 
T4288 000:142.606 - 0.008ms returns 0x01
T4288 000:142.616 JLINK_GetHardwareVersion()
T4288 000:142.624 - 0.011ms returns 0x11170
T4288 000:142.638 JLINK_GetDLLVersion()  returns 68000
T4288 000:142.650 JLINK_GetFirmwareString(...)
T4288 000:142.658 - 0.011ms
T4288 000:151.469 JLINK_GetDLLVersion()  returns 68000
T4288 000:151.516 JLINK_GetCompileDateTime()
T4288 000:151.529 - 0.016ms
T4288 000:154.170 JLINK_GetFirmwareString(...)
T4288 000:154.190 - 0.024ms
T4288 000:156.787 JLINK_GetHardwareVersion()
T4288 000:156.806 - 0.022ms returns 0x11170
T4288 000:168.827 JLINK_TIF_Select(JLINKARM_TIF_SWD)
T4288 000:170.405 - 1.604ms returns 0x00
T4288 000:170.464 JLINK_SetSpeed(10000)
T4288 000:170.983 - 0.540ms
T4288 000:171.027 JLINK_GetId()
T4288 000:176.254   InitTarget() start
T4288 000:176.284    J-Link Script File: Executing InitTarget()
T4288 000:188.089   InitTarget() end
T4288 000:192.207   Found SW-DP with ID 0x2BA01477
T4288 000:196.890   Old FW that does not support reading DPIDR via DAP jobs
T4288 000:208.147   Unknown DP version. Assuming DPv0
T4288 000:210.894   Scanning AP map to find all available APs
T4288 000:219.911   AP[2]: Stopped AP scan as end of AP map has been reached
T4288 000:223.275   AP[0]: AHB-AP (IDR: 0x24770011)
T4288 000:226.066   AP[1]: JTAG-AP (IDR: 0x02880000)
T4288 000:229.215   Iterating through AP map to find AHB-AP to use
T4288 000:239.505   AP[0]: Core found
T4288 000:242.168   AP[0]: AHB-AP ROM base: 0xE00FF000
T4288 000:249.137   CPUID register: 0x410FC241. Implementer code: 0x41 (ARM)
T4288 000:252.147   Found Cortex-M4 r0p1, Little endian.
T4288 000:354.527   -- Max. mem block: 0x00002C18
T4288 000:354.657   CPU_ReadMem(4 bytes @ 0xE000EDF0)
T4288 000:356.189   CPU_WriteMem(4 bytes @ 0xE000EDF0)
T4288 000:357.324   CPU_ReadMem(4 bytes @ 0xE0002000)
T4288 000:368.331   FPUnit: 6 code (BP) slots and 2 literal slots
T4288 000:368.428   CPU_ReadMem(4 bytes @ 0xE000EDFC)
T4288 000:369.279   CPU_WriteMem(4 bytes @ 0xE000EDFC)
T4288 000:370.133   CPU_ReadMem(4 bytes @ 0xE0001000)
T4288 000:371.022   CPU_WriteMem(4 bytes @ 0xE0001000)
T4288 000:371.896   CPU_ReadMem(4 bytes @ 0xE000ED88)
T4288 000:372.788   CPU_WriteMem(4 bytes @ 0xE000ED88)
T4288 000:373.642   CPU_ReadMem(4 bytes @ 0xE000ED88)
T4288 000:374.524   CPU_WriteMem(4 bytes @ 0xE000ED88)
T4288 000:380.684   CoreSight components:
T4288 000:385.221   ROMTbl[0] @ E00FF000
T4288 000:385.276   CPU_ReadMem(64 bytes @ 0xE00FF000)
T4288 000:386.482   CPU_ReadMem(32 bytes @ 0xE000EFE0)
T4288 000:393.024   ROMTbl[0][0]: E000E000, CID: B105E00D, PID: 000BB00C SCS-M7
T4288 000:393.070   CPU_ReadMem(32 bytes @ 0xE0001FE0)
T4288 000:400.318   ROMTbl[0][1]: E0001000, CID: B105E00D, PID: 003BB002 DWT
T4288 000:400.374   CPU_ReadMem(32 bytes @ 0xE0002FE0)
T4288 000:405.807   ROMTbl[0][2]: E0002000, CID: B105E00D, PID: 002BB003 FPB
T4288 000:405.853   CPU_ReadMem(32 bytes @ 0xE0000FE0)
T4288 000:410.057   ROMTbl[0][3]: E0000000, CID: B105E00D, PID: 003BB001 ITM
T4288 000:410.093   CPU_ReadMem(32 bytes @ 0xE0040FE0)
T4288 000:413.985   ROMTbl[0][4]: E0040000, CID: B105900D, PID: 000BB9A1 TPIU
T4288 000:414.019   CPU_ReadMem(32 bytes @ 0xE0041FE0)
T4288 000:418.421   ROMTbl[0][5]: E0041000, CID: B105900D, PID: 000BB925 ETM
T4288 000:419.036 - 248.019ms   returns 0x2BA01477
T4288 000:419.069 JLINK_GetDLLVersion()  returns 68000
T4288 000:419.087 JLINK_CORE_GetFound()
T4288 000:419.095 - 0.011ms returns 0xE0000FF
T4288 000:419.109 JLINK_GetDebugInfo(0x100 = JLINKARM_ROM_TABLE_ADDR_INDEX)
T4288 000:419.118   Value=0xE00FF000
T4288 000:419.128 - 0.022ms returns 0x00
T4288 000:422.495 JLINK_ReadMem (0xE00FF000, 0x0020 Bytes, ...)
T4288 000:422.562   CPU_ReadMem(32 bytes @ 0xE00FF000)
T4288 000:423.602   Data:  03 F0 F0 FF 03 20 F0 FF 03 30 F0 FF 03 10 F0 FF ...
T4288 000:423.624 - 1.134ms returns 0x00
T4288 000:423.638 JLINK_ReadMem (0xE000EFF0, 0x0010 Bytes, ...)
T4288 000:423.653   CPU_ReadMem(16 bytes @ 0xE000EFF0)
T4288 000:424.483   Data:  0D 00 00 00 E0 00 00 00 05 00 00 00 B1 00 00 00
T4288 000:424.499 - 0.865ms returns 0x00
T4288 000:424.510 JLINK_ReadMem (0xE000EFD0, 0x0020 Bytes, ...)
T4288 000:424.524   CPU_ReadMem(32 bytes @ 0xE000EFD0)
T4288 000:425.477   Data:  04 00 00 00 00 00 00 00 00 00 00 00 00 00 00 00 ...
T4288 000:425.491 - 0.984ms returns 0x00
T4288 000:425.502 JLINK_ReadMem (0xE0001FF0, 0x0010 Bytes, ...)
T4288 000:425.515   CPU_ReadMem(16 bytes @ 0xE0001FF0)
T4288 000:426.367   Data:  0D 00 00 00 E0 00 00 00 05 00 00 00 B1 00 00 00
T4288 000:426.406 - 0.908ms returns 0x00
T4288 000:426.417 JLINK_ReadMem (0xE0001FD0, 0x0020 Bytes, ...)
T4288 000:426.429   CPU_ReadMem(32 bytes @ 0xE0001FD0)
T4288 000:427.380   Data:  04 00 00 00 00 00 00 00 00 00 00 00 00 00 00 00 ...
T4288 000:427.414 - 1.000ms returns 0x00
T4288 000:427.424 JLINK_ReadMem (0xE0002FF0, 0x0010 Bytes, ...)
T4288 000:427.437   CPU_ReadMem(16 bytes @ 0xE0002FF0)
T4288 000:428.239   Data:  0D 00 00 00 E0 00 00 00 05 00 00 00 B1 00 00 00
T4288 000:428.276 - 0.855ms returns 0x00
T4288 000:428.286 JLINK_ReadMem (0xE0002FD0, 0x0020 Bytes, ...)
T4288 000:428.299   CPU_ReadMem(32 bytes @ 0xE0002FD0)
T4288 000:429.243   Data:  04 00 00 00 00 00 00 00 00 00 00 00 00 00 00 00 ...
T4288 000:429.279 - 0.996ms returns 0x00
T4288 000:429.289 JLINK_ReadMem (0xE0000FF0, 0x0010 Bytes, ...)
T4288 000:429.301   CPU_ReadMem(16 bytes @ 0xE0000FF0)
T4288 000:430.118   Data:  0D 00 00 00 E0 00 00 00 05 00 00 00 B1 00 00 00
T4288 000:430.153 - 0.868ms returns 0x00
T4288 000:430.164 JLINK_ReadMem (0xE0000FD0, 0x0020 Bytes, ...)
T4288 000:430.176   CPU_ReadMem(32 bytes @ 0xE0000FD0)
T4288 000:431.114   Data:  04 00 00 00 00 00 00 00 00 00 00 00 00 00 00 00 ...
T4288 000:431.151 - 0.990ms returns 0x00
T4288 000:431.162 JLINK_ReadMem (0xE0040FF0, 0x0010 Bytes, ...)
T4288 000:431.174   CPU_ReadMem(16 bytes @ 0xE0040FF0)
T4288 000:431.994   Data:  0D 00 00 00 90 00 00 00 05 00 00 00 B1 00 00 00
T4288 000:432.029 - 0.870ms returns 0x00
T4288 000:432.039 JLINK_ReadMem (0xE0040FD0, 0x0020 Bytes, ...)
T4288 000:432.051   CPU_ReadMem(32 bytes @ 0xE0040FD0)
T4288 000:432.990   Data:  04 00 00 00 00 00 00 00 00 00 00 00 00 00 00 00 ...
T4288 000:433.026 - 0.990ms returns 0x00
T4288 000:433.036 JLINK_ReadMem (0xE0041FF0, 0x0010 Bytes, ...)
T4288 000:433.048   CPU_ReadMem(16 bytes @ 0xE0041FF0)
T4288 000:433.866   Data:  0D 00 00 00 90 00 00 00 05 00 00 00 B1 00 00 00
T4288 000:433.902 - 0.869ms returns 0x00
T4288 000:433.912 JLINK_ReadMem (0xE0041FD0, 0x0020 Bytes, ...)
T4288 000:433.925   CPU_ReadMem(32 bytes @ 0xE0041FD0)
T4288 000:434.868   Data:  04 00 00 00 00 00 00 00 00 00 00 00 00 00 00 00 ...
T4288 000:434.904 - 0.995ms returns 0x00
T4288 000:434.915 JLINK_ReadMemU32(0xE000EF40, 0x0001 Items, ...)
T4288 000:434.928   CPU_ReadMem(4 bytes @ 0xE000EF40)
T4288 000:435.620   Data:  21 00 11 10
T4288 000:435.654 - 0.742ms returns 1
T4288 000:435.665 JLINK_ReadMemU32(0xE000EF44, 0x0001 Items, ...)
T4288 000:435.676   CPU_ReadMem(4 bytes @ 0xE000EF44)
T4288 000:436.382   Data:  11 00 00 11
T4288 000:436.425 - 0.764ms returns 1
T4288 000:436.435 JLINK_ReadMemU32(0xE000ED00, 0x0001 Items, ...)
T4288 000:436.448   CPU_ReadMem(4 bytes @ 0xE000ED00)
T4288 000:437.115   Data:  41 C2 0F 41
T4288 000:437.152   Debug reg: CPUID
T4288 000:437.162 - 0.730ms returns 1
T4288 000:437.175 JLINK_SetResetType(JLINKARM_CM3_RESET_TYPE_NORMAL)
T4288 000:437.183 - 0.011ms returns JLINKARM_CM3_RESET_TYPE_NORMAL
T4288 000:437.192 JLINK_Reset()
T4288 000:437.213   CPU is running
T4288 000:437.226   CPU_WriteMem(4 bytes @ 0xE000EDF0)
T4288 000:437.948   CPU is running
T4288 000:437.972   CPU_WriteMem(4 bytes @ 0xE000EDFC)
T4288 000:441.807   Reset: Halt core after reset via DEMCR.VC_CORERESET.
T4288 000:446.381   Reset: Reset device via AIRCR.SYSRESETREQ.
T4288 000:446.416   CPU is running
T4288 000:446.431   CPU_WriteMem(4 bytes @ 0xE000ED0C)
T4288 000:500.417   CPU_ReadMem(4 bytes @ 0xE000EDF0)
T4288 000:501.348   CPU_ReadMem(4 bytes @ 0xE000EDF0)
T4288 000:502.158   CPU is running
T4288 000:502.178   CPU_WriteMem(4 bytes @ 0xE000EDF0)
T4288 000:502.918   CPU is running
T4288 000:502.938   CPU_WriteMem(4 bytes @ 0xE000EDFC)
T4288 000:509.327   CPU_ReadMem(4 bytes @ 0xE000EDF0)
T4288 000:514.054   CPU_WriteMem(4 bytes @ 0xE0002000)
T4288 000:514.804   CPU_ReadMem(4 bytes @ 0xE000EDFC)
T4288 000:515.457   CPU_ReadMem(4 bytes @ 0xE0001000)
T4288 000:516.289 - 79.106ms
T4288 000:516.318 JLINK_Halt()
T4288 000:516.330 - 0.016ms returns 0x00
T4288 000:516.398 JLINK_IsHalted()
T4288 000:516.414 - 0.020ms returns TRUE
T4288 000:516.427 JLINK_ReadMemU32(0xE000EDF0, 0x0001 Items, ...)
T4288 000:516.446   CPU_ReadMem(4 bytes @ 0xE000EDF0)
T4288 000:517.152   Data:  03 00 03 00
T4288 000:517.170   Debug reg: DHCSR
T4288 000:517.184 - 0.761ms returns 1
T4288 000:517.197 JLINK_WriteU32(0xE000EDF0, 0xA05F0003)
T4288 000:517.208   Debug reg: DHCSR
T4288 000:517.234   CPU_WriteMem(4 bytes @ 0xE000EDF0)
T4288 000:518.029 - 0.840ms returns 0
T4288 000:518.047 JLINK_WriteU32(0xE000EDFC, 0x01000000)
T4288 000:518.058   Debug reg: DEMCR
T4288 000:518.078   CPU_WriteMem(4 bytes @ 0xE000EDFC)
T4288 000:518.920 - 0.881ms returns 0
T4288 000:531.558 JLINK_GetHWStatus(...)
T4288 000:532.182 - 0.634ms returns 0x00
T4288 000:541.385 JLINK_GetNumBPUnits(Type = 0xFFFFFF00)
T4288 000:541.417 - 0.035ms returns 0x06
T4288 000:541.427 JLINK_GetNumBPUnits(Type = 0xF0)
T4288 000:541.435 - 0.011ms returns 0x2000
T4288 000:541.444 JLINK_GetNumWPUnits()
T4288 000:541.451 - 0.010ms returns 0x04
T4288 000:549.811 JLINK_GetSpeed()
T4288 000:549.844 - 0.037ms returns 0xFA0
T4288 000:555.942 JLINK_ReadMemU32(0xE000E004, 0x0001 Items, ...)
T4288 000:555.988   CPU_ReadMem(4 bytes @ 0xE000E004)
T4288 000:556.935   Data:  01 00 00 00
T4288 000:556.961 - 1.025ms returns 1
T4288 000:556.976 JLINK_ReadMemU32(0xE000E004, 0x0001 Items, ...)
T4288 000:556.994   CPU_ReadMem(4 bytes @ 0xE000E004)
T4288 000:557.932   Data:  01 00 00 00
T4288 000:557.950 - 0.979ms returns 1
T4288 000:557.964 JLINK_WriteMem(0xE0001000, 0x001C Bytes, ...)
T4288 000:557.975   Data:  01 00 00 00 00 00 00 00 00 00 00 00 00 00 00 00 ...
T4288 000:558.432   CPU_WriteMem(28 bytes @ 0xE0001000)
T4288 000:559.491 - 1.535ms returns 0x1C
T4288 000:559.508 JLINK_ReadMem (0xE0001000, 0x001C Bytes, ...)
T4288 000:559.525   CPU_ReadMem(28 bytes @ 0xE0001000)
T4288 000:560.504   Data:  01 00 00 40 00 00 00 00 00 00 00 00 00 00 00 00 ...
T4288 000:560.522 - 1.018ms returns 0x00
T4288 000:560.539 JLINK_Halt()
T4288 000:560.550 - 0.016ms returns 0x00
T4288 000:560.567 JLINK_IsHalted()
T4288 000:560.581 - 0.017ms returns TRUE
T4288 000:564.352 JLINK_WriteMem(0x20000000, 0x06E4 Bytes, ...)
T4288 000:564.375   Data:  00 BE 0A E0 0D 78 2D 06 68 40 08 24 40 00 00 D3 ...
T4288 000:564.889   CPU_WriteMem(1764 bytes @ 0x20000000)
T4288 000:585.801 - 21.475ms returns 0x6E4
T4288 000:585.935 JLINK_WriteReg(R0, 0x00000000)
T4288 000:585.964 - 0.036ms returns 0x00
T4288 000:585.978 JLINK_WriteReg(R1, 0x03D09000)
T4288 000:585.990 - 0.017ms returns 0x00
T4288 000:586.001 JLINK_WriteReg(R2, 0x00000001)
T4288 000:586.009 - 0.012ms returns 0x00
T4288 000:586.019 JLINK_WriteReg(R3, 0x00000000)
T4288 000:586.027 - 0.012ms returns 0x00
T4288 000:586.036 JLINK_WriteReg(R4, 0x00000000)
T4288 000:586.044 - 0.012ms returns 0x00
T4288 000:586.053 JLINK_WriteReg(R5, 0x00000000)
T4288 000:586.061 - 0.012ms returns 0x00
T4288 000:586.070 JLINK_WriteReg(R6, 0x00000000)
T4288 000:586.078 - 0.011ms returns 0x00
T4288 000:586.087 JLINK_WriteReg(R7, 0x00000000)
T4288 000:586.095 - 0.011ms returns 0x00
T4288 000:586.104 JLINK_WriteReg(R8, 0x00000000)
T4288 000:586.120 - 0.019ms returns 0x00
T4288 000:586.129 JLINK_WriteReg(R9, 0x200006E0)
T4288 000:586.137 - 0.012ms returns 0x00
T4288 000:586.146 JLINK_WriteReg(R10, 0x00000000)
T4288 000:586.154 - 0.012ms returns 0x00
T4288 000:586.164 JLINK_WriteReg(R11, 0x00000000)
T4288 000:586.172 - 0.012ms returns 0x00
T4288 000:586.181 JLINK_WriteReg(R12, 0x00000000)
T4288 000:586.189 - 0.012ms returns 0x00
T4288 000:586.198 JLINK_WriteReg(R13 (SP), 0x20002000)
T4288 000:586.207 - 0.012ms returns 0x00
T4288 000:586.216 JLINK_WriteReg(R14, 0x20000001)
T4288 000:586.224 - 0.012ms returns 0x00
T4288 000:586.239 JLINK_WriteReg(R15 (PC), 0x20000020)
T4288 000:586.251 - 0.015ms returns 0x00
T4288 000:586.260 JLINK_WriteReg(XPSR, 0x01000000)
T4288 000:586.269 - 0.012ms returns 0x00
T4288 000:586.278 JLINK_WriteReg(MSP, 0x20002000)
T4288 000:586.286 - 0.012ms returns 0x00
T4288 000:586.295 JLINK_WriteReg(PSP, 0x20002000)
T4288 000:586.303 - 0.012ms returns 0x00
T4288 000:586.312 JLINK_WriteReg(CFBP, 0x00000000)
T4288 000:586.320 - 0.012ms returns 0x00
T4288 000:586.330   JLINK_SetBPEx(Addr = 0x20000000, Type = 0xFFFFFFF2)
T4288 000:586.349   CPU_ReadMem(2 bytes @ 0x20000000)
T4288 000:587.172 - 0.850ms returns 0x00000001
T4288 000:587.189 JLINK_Go()
T4288 000:587.209   CPU_WriteMem(2 bytes @ 0x20000000)
T4288 000:588.054   CPU_ReadMem(4 bytes @ 0xE0001000)
T4288 000:588.820   CPU_WriteMem(4 bytes @ 0xE0002008)
T4288 000:588.840   CPU_WriteMem(4 bytes @ 0xE000200C)
T4288 000:588.855   CPU_WriteMem(4 bytes @ 0xE0002010)
T4288 000:588.870   CPU_WriteMem(4 bytes @ 0xE0002014)
T4288 000:588.884   CPU_WriteMem(4 bytes @ 0xE0002018)
T4288 000:588.895   CPU_WriteMem(4 bytes @ 0xE000201C)
T4288 000:591.506   CPU_WriteMem(4 bytes @ 0xE0001004)
T4288 000:595.929 - 8.748ms
T4288 000:595.947 JLINK_IsHalted()
T4288 000:599.486   CPU_ReadMem(2 bytes @ 0x20000000)
T4288 000:600.162 - 4.225ms returns TRUE
T4288 000:600.183 JLINK_ReadReg(R15 (PC))
T4288 000:600.199 - 0.022ms returns 0x20000000
T4288 000:600.213 JLINK_ClrBPEx(BPHandle = 0x00000001)
T4288 000:600.240 - 0.036ms returns 0x00
T4288 000:600.261 JLINK_ReadReg(R0)
T4288 000:600.280 - 0.027ms returns 0x00000000
T4288 000:600.989 JLINK_WriteReg(R0, 0x00026000)
T4288 000:601.015 - 0.033ms returns 0x00
T4288 000:601.030 JLINK_WriteReg(R1, 0x00001000)
T4288 000:601.043 - 0.018ms returns 0x00
T4288 000:601.057 JLINK_WriteReg(R2, 0x000000FF)
T4288 000:601.070 - 0.019ms returns 0x00
T4288 000:601.084 JLINK_WriteReg(R3, 0x00000000)
T4288 000:601.096 - 0.018ms returns 0x00
T4288 000:601.110 JLINK_WriteReg(R4, 0x00000000)
T4288 000:601.124 - 0.020ms returns 0x00
T4288 000:601.139 JLINK_WriteReg(R5, 0x00000000)
T4288 000:601.153 - 0.020ms returns 0x00
T4288 000:601.168 JLINK_WriteReg(R6, 0x00000000)
T4288 000:601.182 - 0.020ms returns 0x00
T4288 000:601.196 JLINK_WriteReg(R7, 0x00000000)
T4288 000:601.209 - 0.019ms returns 0x00
T4288 000:601.226 JLINK_WriteReg(R8, 0x00000000)
T4288 000:601.314 - 0.094ms returns 0x00
T4288 000:601.330 JLINK_WriteReg(R9, 0x200006E0)
T4288 000:601.343 - 0.019ms returns 0x00
T4288 000:601.357 JLINK_WriteReg(R10, 0x00000000)
T4288 000:601.371 - 0.019ms returns 0x00
T4288 000:601.385 JLINK_WriteReg(R11, 0x00000000)
T4288 000:601.398 - 0.019ms returns 0x00
T4288 000:601.414 JLINK_WriteReg(R12, 0x00000000)
T4288 000:601.427 - 0.019ms returns 0x00
T4288 000:601.441 JLINK_WriteReg(R13 (SP), 0x20002000)
T4288 000:601.455 - 0.020ms returns 0x00
T4288 000:601.469 JLINK_WriteReg(R14, 0x20000001)
T4288 000:601.482 - 0.019ms returns 0x00
T4288 000:601.496 JLINK_WriteReg(R15 (PC), 0x20000344)
T4288 000:601.510 - 0.019ms returns 0x00
T4288 000:601.524 JLINK_WriteReg(XPSR, 0x01000000)
T4288 000:601.537 - 0.019ms returns 0x00
T4288 000:601.551 JLINK_WriteReg(MSP, 0x20002000)
T4288 000:601.564 - 0.018ms returns 0x00
T4288 000:601.578 JLINK_WriteReg(PSP, 0x20002000)
T4288 000:601.590 - 0.019ms returns 0x00
T4288 000:601.605 JLINK_WriteReg(CFBP, 0x00000000)
T4288 000:601.618 - 0.018ms returns 0x00
T4288 000:601.633   JLINK_SetBPEx(Addr = 0x20000000, Type = 0xFFFFFFF2)
T4288 000:601.653 - 0.027ms returns 0x00000002
T4288 000:601.667 JLINK_Go()
T4288 000:601.695   CPU_ReadMem(4 bytes @ 0xE0001000)
T4288 000:605.951 - 4.306ms
T4288 000:605.989 JLINK_IsHalted()
T4288 000:606.585 - 0.607ms returns FALSE
T4288 000:623.262 JLINK_IsHalted()
T4288 000:627.254   CPU_ReadMem(2 bytes @ 0x20000000)
T4288 000:627.852 - 4.625ms returns TRUE
T4288 000:627.909 JLINK_ReadReg(R15 (PC))
T4288 000:627.938 - 0.036ms returns 0x20000000
T4288 000:627.954 JLINK_ClrBPEx(BPHandle = 0x00000002)
T4288 000:627.968 - 0.020ms returns 0x00
T4288 000:627.983 JLINK_ReadReg(R0)
T4288 000:627.997 - 0.020ms returns 0x00000000
T4288 000:628.752 JLINK_WriteReg(R0, 0x00027000)
T4288 000:628.771 - 0.023ms returns 0x00
T4288 000:628.780 JLINK_WriteReg(R1, 0x00001000)
T4288 000:628.789 - 0.012ms returns 0x00
T4288 000:628.798 JLINK_WriteReg(R2, 0x000000FF)
T4288 000:628.807 - 0.012ms returns 0x00
T4288 000:628.816 JLINK_WriteReg(R3, 0x00000000)
T4288 000:628.824 - 0.012ms returns 0x00
T4288 000:628.833 JLINK_WriteReg(R4, 0x00000000)
T4288 000:628.842 - 0.012ms returns 0x00
T4288 000:628.851 JLINK_WriteReg(R5, 0x00000000)
T4288 000:628.859 - 0.012ms returns 0x00
T4288 000:628.868 JLINK_WriteReg(R6, 0x00000000)
T4288 000:628.876 - 0.012ms returns 0x00
T4288 000:628.885 JLINK_WriteReg(R7, 0x00000000)
T4288 000:628.894 - 0.012ms returns 0x00
T4288 000:628.903 JLINK_WriteReg(R8, 0x00000000)
T4288 000:628.911 - 0.012ms returns 0x00
T4288 000:628.920 JLINK_WriteReg(R9, 0x200006E0)
T4288 000:628.928 - 0.012ms returns 0x00
T4288 000:628.938 JLINK_WriteReg(R10, 0x00000000)
T4288 000:628.946 - 0.012ms returns 0x00
T4288 000:628.955 JLINK_WriteReg(R11, 0x00000000)
T4288 000:628.963 - 0.012ms returns 0x00
T4288 000:628.972 JLINK_WriteReg(R12, 0x00000000)
T4288 000:628.981 - 0.012ms returns 0x00
T4288 000:628.990 JLINK_WriteReg(R13 (SP), 0x20002000)
T4288 000:628.999 - 0.012ms returns 0x00
T4288 000:629.008 JLINK_WriteReg(R14, 0x20000001)
T4288 000:629.017 - 0.012ms returns 0x00
T4288 000:629.026 JLINK_WriteReg(R15 (PC), 0x20000344)
T4288 000:629.034 - 0.012ms returns 0x00
T4288 000:629.043 JLINK_WriteReg(XPSR, 0x01000000)
T4288 000:629.052 - 0.012ms returns 0x00
T4288 000:629.061 JLINK_WriteReg(MSP, 0x20002000)
T4288 000:629.069 - 0.012ms returns 0x00
T4288 000:629.078 JLINK_WriteReg(PSP, 0x20002000)
T4288 000:629.086 - 0.012ms returns 0x00
T4288 000:629.095 JLINK_WriteReg(CFBP, 0x00000000)
T4288 000:629.103 - 0.012ms returns 0x00
T4288 000:629.114   JLINK_SetBPEx(Addr = 0x20000000, Type = 0xFFFFFFF2)
T4288 000:629.126 - 0.017ms returns 0x00000003
T4288 000:629.135 JLINK_Go()
T4288 000:629.154   CPU_ReadMem(4 bytes @ 0xE0001000)
T4288 000:633.522 - 4.396ms
T4288 000:633.541 JLINK_IsHalted()
T4288 000:634.255 - 0.734ms returns FALSE
T4288 000:636.247 JLINK_IsHalted()
T4288 000:640.072   CPU_ReadMem(2 bytes @ 0x20000000)
T4288 000:640.930 - 4.696ms returns TRUE
T4288 000:640.951 JLINK_ReadReg(R15 (PC))
T4288 000:640.965 - 0.020ms returns 0x20000000
T4288 000:640.980 JLINK_ClrBPEx(BPHandle = 0x00000003)
T4288 000:640.991 - 0.015ms returns 0x00
T4288 000:641.002 JLINK_ReadReg(R0)
T4288 000:641.011 - 0.012ms returns 0x00000000
T4288 000:641.561 JLINK_WriteReg(R0, 0x00028000)
T4288 000:641.577 - 0.019ms returns 0x00
T4288 000:641.586 JLINK_WriteReg(R1, 0x00001000)
T4288 000:641.594 - 0.011ms returns 0x00
T4288 000:641.603 JLINK_WriteReg(R2, 0x000000FF)
T4288 000:641.611 - 0.011ms returns 0x00
T4288 000:641.619 JLINK_WriteReg(R3, 0x00000000)
T4288 000:641.627 - 0.011ms returns 0x00
T4288 000:641.636 JLINK_WriteReg(R4, 0x00000000)
T4288 000:641.643 - 0.011ms returns 0x00
T4288 000:641.652 JLINK_WriteReg(R5, 0x00000000)
T4288 000:641.670 - 0.021ms returns 0x00
T4288 000:641.679 JLINK_WriteReg(R6, 0x00000000)
T4288 000:641.687 - 0.012ms returns 0x00
T4288 000:641.696 JLINK_WriteReg(R7, 0x00000000)
T4288 000:641.705 - 0.012ms returns 0x00
T4288 000:641.714 JLINK_WriteReg(R8, 0x00000000)
T4288 000:641.722 - 0.012ms returns 0x00
T4288 000:641.731 JLINK_WriteReg(R9, 0x200006E0)
T4288 000:641.739 - 0.012ms returns 0x00
T4288 000:641.748 JLINK_WriteReg(R10, 0x00000000)
T4288 000:641.756 - 0.012ms returns 0x00
T4288 000:641.766 JLINK_WriteReg(R11, 0x00000000)
T4288 000:641.774 - 0.012ms returns 0x00
T4288 000:641.783 JLINK_WriteReg(R12, 0x00000000)
T4288 000:641.791 - 0.012ms returns 0x00
T4288 000:641.800 JLINK_WriteReg(R13 (SP), 0x20002000)
T4288 000:641.809 - 0.012ms returns 0x00
T4288 000:641.818 JLINK_WriteReg(R14, 0x20000001)
T4288 000:641.826 - 0.012ms returns 0x00
T4288 000:641.835 JLINK_WriteReg(R15 (PC), 0x20000344)
T4288 000:641.844 - 0.012ms returns 0x00
T4288 000:641.853 JLINK_WriteReg(XPSR, 0x01000000)
T4288 000:641.861 - 0.012ms returns 0x00
T4288 000:641.870 JLINK_WriteReg(MSP, 0x20002000)
T4288 000:641.878 - 0.012ms returns 0x00
T4288 000:641.887 JLINK_WriteReg(PSP, 0x20002000)
T4288 000:641.896 - 0.012ms returns 0x00
T4288 000:641.905 JLINK_WriteReg(CFBP, 0x00000000)
T4288 000:641.913 - 0.012ms returns 0x00
T4288 000:641.923   JLINK_SetBPEx(Addr = 0x20000000, Type = 0xFFFFFFF2)
T4288 000:641.934 - 0.016ms returns 0x00000004
T4288 000:641.944 JLINK_Go()
T4288 000:641.959   CPU_ReadMem(4 bytes @ 0xE0001000)
T4288 000:646.346 - 4.412ms
T4288 000:646.365 JLINK_IsHalted()
T4288 000:647.163 - 0.806ms returns FALSE
T4288 000:649.225 JLINK_IsHalted()
T4288 000:652.929   CPU_ReadMem(2 bytes @ 0x20000000)
T4288 000:653.685 - 4.469ms returns TRUE
T4288 000:653.705 JLINK_ReadReg(R15 (PC))
T4288 000:653.720 - 0.021ms returns 0x20000000
T4288 000:653.734 JLINK_ClrBPEx(BPHandle = 0x00000004)
T4288 000:653.745 - 0.016ms returns 0x00
T4288 000:653.756 JLINK_ReadReg(R0)
T4288 000:653.764 - 0.012ms returns 0x00000000
T4288 000:654.433 JLINK_WriteReg(R0, 0x00029000)
T4288 000:654.450 - 0.021ms returns 0x00
T4288 000:654.460 JLINK_WriteReg(R1, 0x00001000)
T4288 000:654.468 - 0.012ms returns 0x00
T4288 000:654.477 JLINK_WriteReg(R2, 0x000000FF)
T4288 000:654.486 - 0.012ms returns 0x00
T4288 000:654.495 JLINK_WriteReg(R3, 0x00000000)
T4288 000:654.503 - 0.012ms returns 0x00
T4288 000:654.512 JLINK_WriteReg(R4, 0x00000000)
T4288 000:654.520 - 0.012ms returns 0x00
T4288 000:654.530 JLINK_WriteReg(R5, 0x00000000)
T4288 000:654.538 - 0.012ms returns 0x00
T4288 000:654.547 JLINK_WriteReg(R6, 0x00000000)
T4288 000:654.555 - 0.012ms returns 0x00
T4288 000:654.564 JLINK_WriteReg(R7, 0x00000000)
T4288 000:654.572 - 0.012ms returns 0x00
T4288 000:654.581 JLINK_WriteReg(R8, 0x00000000)
T4288 000:654.590 - 0.012ms returns 0x00
T4288 000:654.599 JLINK_WriteReg(R9, 0x200006E0)
T4288 000:654.607 - 0.012ms returns 0x00
T4288 000:654.616 JLINK_WriteReg(R10, 0x00000000)
T4288 000:654.624 - 0.012ms returns 0x00
T4288 000:654.633 JLINK_WriteReg(R11, 0x00000000)
T4288 000:654.642 - 0.012ms returns 0x00
T4288 000:654.651 JLINK_WriteReg(R12, 0x00000000)
T4288 000:654.659 - 0.012ms returns 0x00
T4288 000:654.673 JLINK_WriteReg(R13 (SP), 0x20002000)
T4288 000:654.687 - 0.017ms returns 0x00
T4288 000:654.696 JLINK_WriteReg(R14, 0x20000001)
T4288 000:654.704 - 0.012ms returns 0x00
T4288 000:654.713 JLINK_WriteReg(R15 (PC), 0x20000344)
T4288 000:654.722 - 0.012ms returns 0x00
T4288 000:654.731 JLINK_WriteReg(XPSR, 0x01000000)
T4288 000:654.739 - 0.012ms returns 0x00
T4288 000:654.748 JLINK_WriteReg(MSP, 0x20002000)
T4288 000:654.756 - 0.012ms returns 0x00
T4288 000:654.765 JLINK_WriteReg(PSP, 0x20002000)
T4288 000:654.773 - 0.012ms returns 0x00
T4288 000:654.783 JLINK_WriteReg(CFBP, 0x00000000)
T4288 000:654.791 - 0.012ms returns 0x00
T4288 000:654.801   JLINK_SetBPEx(Addr = 0x20000000, Type = 0xFFFFFFF2)
T4288 000:654.813 - 0.017ms returns 0x00000005
T4288 000:654.823 JLINK_Go()
T4288 000:654.839   CPU_ReadMem(4 bytes @ 0xE0001000)
T4288 000:659.331 - 4.529ms
T4288 000:659.360 JLINK_IsHalted()
T4288 000:663.064   CPU_ReadMem(2 bytes @ 0x20000000)
T4288 000:663.936 - 4.584ms returns TRUE
T4288 000:663.955 JLINK_ReadReg(R15 (PC))
T4288 000:663.970 - 0.021ms returns 0x20000000
T4288 000:663.984 JLINK_ClrBPEx(BPHandle = 0x00000005)
T4288 000:663.996 - 0.015ms returns 0x00
T4288 000:664.006 JLINK_ReadReg(R0)
T4288 000:664.014 - 0.012ms returns 0x00000000
T4288 000:664.639 JLINK_WriteReg(R0, 0x0002A000)
T4288 000:664.655 - 0.020ms returns 0x00
T4288 000:664.665 JLINK_WriteReg(R1, 0x00001000)
T4288 000:664.673 - 0.012ms returns 0x00
T4288 000:664.683 JLINK_WriteReg(R2, 0x000000FF)
T4288 000:664.691 - 0.012ms returns 0x00
T4288 000:664.700 JLINK_WriteReg(R3, 0x00000000)
T4288 000:664.708 - 0.012ms returns 0x00
T4288 000:664.717 JLINK_WriteReg(R4, 0x00000000)
T4288 000:664.725 - 0.012ms returns 0x00
T4288 000:664.734 JLINK_WriteReg(R5, 0x00000000)
T4288 000:664.743 - 0.012ms returns 0x00
T4288 000:664.752 JLINK_WriteReg(R6, 0x00000000)
T4288 000:664.760 - 0.011ms returns 0x00
T4288 000:664.769 JLINK_WriteReg(R7, 0x00000000)
T4288 000:664.777 - 0.012ms returns 0x00
T4288 000:664.786 JLINK_WriteReg(R8, 0x00000000)
T4288 000:664.794 - 0.012ms returns 0x00
T4288 000:664.803 JLINK_WriteReg(R9, 0x200006E0)
T4288 000:664.811 - 0.012ms returns 0x00
T4288 000:664.820 JLINK_WriteReg(R10, 0x00000000)
T4288 000:664.828 - 0.012ms returns 0x00
T4288 000:664.838 JLINK_WriteReg(R11, 0x00000000)
T4288 000:664.846 - 0.012ms returns 0x00
T4288 000:664.855 JLINK_WriteReg(R12, 0x00000000)
T4288 000:664.863 - 0.012ms returns 0x00
T4288 000:664.872 JLINK_WriteReg(R13 (SP), 0x20002000)
T4288 000:664.881 - 0.012ms returns 0x00
T4288 000:664.890 JLINK_WriteReg(R14, 0x20000001)
T4288 000:664.898 - 0.012ms returns 0x00
T4288 000:664.907 JLINK_WriteReg(R15 (PC), 0x20000344)
T4288 000:664.915 - 0.012ms returns 0x00
T4288 000:664.924 JLINK_WriteReg(XPSR, 0x01000000)
T4288 000:664.933 - 0.012ms returns 0x00
T4288 000:664.942 JLINK_WriteReg(MSP, 0x20002000)
T4288 000:664.950 - 0.012ms returns 0x00
T4288 000:664.959 JLINK_WriteReg(PSP, 0x20002000)
T4288 000:664.967 - 0.012ms returns 0x00
T4288 000:664.976 JLINK_WriteReg(CFBP, 0x00000000)
T4288 000:664.984 - 0.012ms returns 0x00
T4288 000:664.994   JLINK_SetBPEx(Addr = 0x20000000, Type = 0xFFFFFFF2)
T4288 000:665.006 - 0.016ms returns 0x00000006
T4288 000:665.015 JLINK_Go()
T4288 000:665.031   CPU_ReadMem(4 bytes @ 0xE0001000)
T4288 000:669.470 - 4.476ms
T4288 000:669.511 JLINK_IsHalted()
T4288 000:670.146 - 0.645ms returns FALSE
T4288 000:673.225 JLINK_IsHalted()
T4288 000:676.871   CPU_ReadMem(2 bytes @ 0x20000000)
T4288 000:677.594 - 4.380ms returns TRUE
T4288 000:677.617 JLINK_ReadReg(R15 (PC))
T4288 000:677.634 - 0.023ms returns 0x20000000
T4288 000:677.647 JLINK_ClrBPEx(BPHandle = 0x00000006)
T4288 000:677.658 - 0.014ms returns 0x00
T4288 000:677.668 JLINK_ReadReg(R0)
T4288 000:677.676 - 0.012ms returns 0x00000000
T4288 000:678.343 JLINK_WriteReg(R0, 0x0002B000)
T4288 000:678.360 - 0.021ms returns 0x00
T4288 000:678.370 JLINK_WriteReg(R1, 0x00001000)
T4288 000:678.379 - 0.012ms returns 0x00
T4288 000:678.388 JLINK_WriteReg(R2, 0x000000FF)
T4288 000:678.405 - 0.021ms returns 0x00
T4288 000:678.414 JLINK_WriteReg(R3, 0x00000000)
T4288 000:678.423 - 0.012ms returns 0x00
T4288 000:678.432 JLINK_WriteReg(R4, 0x00000000)
T4288 000:678.440 - 0.012ms returns 0x00
T4288 000:678.449 JLINK_WriteReg(R5, 0x00000000)
T4288 000:678.457 - 0.012ms returns 0x00
T4288 000:678.467 JLINK_WriteReg(R6, 0x00000000)
T4288 000:678.475 - 0.012ms returns 0x00
T4288 000:678.484 JLINK_WriteReg(R7, 0x00000000)
T4288 000:678.492 - 0.012ms returns 0x00
T4288 000:678.501 JLINK_WriteReg(R8, 0x00000000)
T4288 000:678.510 - 0.012ms returns 0x00
T4288 000:678.519 JLINK_WriteReg(R9, 0x200006E0)
T4288 000:678.527 - 0.012ms returns 0x00
T4288 000:678.536 JLINK_WriteReg(R10, 0x00000000)
T4288 000:678.544 - 0.012ms returns 0x00
T4288 000:678.553 JLINK_WriteReg(R11, 0x00000000)
T4288 000:678.562 - 0.012ms returns 0x00
T4288 000:678.571 JLINK_WriteReg(R12, 0x00000000)
T4288 000:678.579 - 0.012ms returns 0x00
T4288 000:678.588 JLINK_WriteReg(R13 (SP), 0x20002000)
T4288 000:678.597 - 0.012ms returns 0x00
T4288 000:678.606 JLINK_WriteReg(R14, 0x20000001)
T4288 000:678.614 - 0.012ms returns 0x00
T4288 000:678.623 JLINK_WriteReg(R15 (PC), 0x20000344)
T4288 000:678.631 - 0.012ms returns 0x00
T4288 000:678.641 JLINK_WriteReg(XPSR, 0x01000000)
T4288 000:678.649 - 0.012ms returns 0x00
T4288 000:678.658 JLINK_WriteReg(MSP, 0x20002000)
T4288 000:678.666 - 0.012ms returns 0x00
T4288 000:678.675 JLINK_WriteReg(PSP, 0x20002000)
T4288 000:678.683 - 0.012ms returns 0x00
T4288 000:678.692 JLINK_WriteReg(CFBP, 0x00000000)
T4288 000:678.701 - 0.012ms returns 0x00
T4288 000:678.711   JLINK_SetBPEx(Addr = 0x20000000, Type = 0xFFFFFFF2)
T4288 000:678.723 - 0.017ms returns 0x00000007
T4288 000:678.732 JLINK_Go()
T4288 000:678.750   CPU_ReadMem(4 bytes @ 0xE0001000)
T4288 000:683.158 - 4.436ms
T4288 000:683.195 JLINK_IsHalted()
T4288 000:687.048   CPU_ReadMem(2 bytes @ 0x20000000)
T4288 000:687.938 - 4.751ms returns TRUE
T4288 000:687.955 JLINK_ReadReg(R15 (PC))
T4288 000:687.969 - 0.019ms returns 0x20000000
T4288 000:687.982 JLINK_ClrBPEx(BPHandle = 0x00000007)
T4288 000:687.993 - 0.016ms returns 0x00
T4288 000:688.004 JLINK_ReadReg(R0)
T4288 000:688.012 - 0.012ms returns 0x00000000
T4288 000:688.542 JLINK_WriteReg(R0, 0x0002C000)
T4288 000:688.557 - 0.020ms returns 0x00
T4288 000:688.567 JLINK_WriteReg(R1, 0x00001000)
T4288 000:688.575 - 0.012ms returns 0x00
T4288 000:688.584 JLINK_WriteReg(R2, 0x000000FF)
T4288 000:688.592 - 0.012ms returns 0x00
T4288 000:688.602 JLINK_WriteReg(R3, 0x00000000)
T4288 000:688.610 - 0.012ms returns 0x00
T4288 000:688.619 JLINK_WriteReg(R4, 0x00000000)
T4288 000:688.627 - 0.012ms returns 0x00
T4288 000:688.636 JLINK_WriteReg(R5, 0x00000000)
T4288 000:688.644 - 0.012ms returns 0x00
T4288 000:688.653 JLINK_WriteReg(R6, 0x00000000)
T4288 000:688.662 - 0.012ms returns 0x00
T4288 000:688.671 JLINK_WriteReg(R7, 0x00000000)
T4288 000:688.679 - 0.012ms returns 0x00
T4288 000:688.688 JLINK_WriteReg(R8, 0x00000000)
T4288 000:688.696 - 0.012ms returns 0x00
T4288 000:688.705 JLINK_WriteReg(R9, 0x200006E0)
T4288 000:688.713 - 0.011ms returns 0x00
T4288 000:688.722 JLINK_WriteReg(R10, 0x00000000)
T4288 000:688.730 - 0.012ms returns 0x00
T4288 000:688.739 JLINK_WriteReg(R11, 0x00000000)
T4288 000:688.747 - 0.012ms returns 0x00
T4288 000:688.757 JLINK_WriteReg(R12, 0x00000000)
T4288 000:688.765 - 0.012ms returns 0x00
T4288 000:688.774 JLINK_WriteReg(R13 (SP), 0x20002000)
T4288 000:688.783 - 0.012ms returns 0x00
T4288 000:688.792 JLINK_WriteReg(R14, 0x20000001)
T4288 000:688.800 - 0.012ms returns 0x00
T4288 000:688.809 JLINK_WriteReg(R15 (PC), 0x20000344)
T4288 000:688.817 - 0.012ms returns 0x00
T4288 000:688.826 JLINK_WriteReg(XPSR, 0x01000000)
T4288 000:688.834 - 0.012ms returns 0x00
T4288 000:688.843 JLINK_WriteReg(MSP, 0x20002000)
T4288 000:688.852 - 0.012ms returns 0x00
T4288 000:688.861 JLINK_WriteReg(PSP, 0x20002000)
T4288 000:688.869 - 0.012ms returns 0x00
T4288 000:688.878 JLINK_WriteReg(CFBP, 0x00000000)
T4288 000:688.889 - 0.017ms returns 0x00
T4288 000:688.902   JLINK_SetBPEx(Addr = 0x20000000, Type = 0xFFFFFFF2)
T4288 000:688.914 - 0.016ms returns 0x00000008
T4288 000:688.923 JLINK_Go()
T4288 000:688.938   CPU_ReadMem(4 bytes @ 0xE0001000)
T4288 000:693.056 - 4.153ms
T4288 000:693.088 JLINK_IsHalted()
T4288 000:696.927   CPU_ReadMem(2 bytes @ 0x20000000)
T4288 000:697.682 - 4.601ms returns TRUE
T4288 000:697.703 JLINK_ReadReg(R15 (PC))
T4288 000:697.718 - 0.021ms returns 0x20000000
T4288 000:697.733 JLINK_ClrBPEx(BPHandle = 0x00000008)
T4288 000:697.744 - 0.015ms returns 0x00
T4288 000:697.756 JLINK_ReadReg(R0)
T4288 000:697.764 - 0.012ms returns 0x00000000
T4288 000:698.189 JLINK_WriteReg(R0, 0x00000001)
T4288 000:698.205 - 0.021ms returns 0x00
T4288 000:698.215 JLINK_WriteReg(R1, 0x00001000)
T4288 000:698.223 - 0.012ms returns 0x00
T4288 000:698.232 JLINK_WriteReg(R2, 0x000000FF)
T4288 000:698.241 - 0.012ms returns 0x00
T4288 000:698.250 JLINK_WriteReg(R3, 0x00000000)
T4288 000:698.258 - 0.012ms returns 0x00
T4288 000:698.267 JLINK_WriteReg(R4, 0x00000000)
T4288 000:698.275 - 0.012ms returns 0x00
T4288 000:698.284 JLINK_WriteReg(R5, 0x00000000)
T4288 000:698.292 - 0.012ms returns 0x00
T4288 000:698.301 JLINK_WriteReg(R6, 0x00000000)
T4288 000:698.310 - 0.011ms returns 0x00
T4288 000:698.319 JLINK_WriteReg(R7, 0x00000000)
T4288 000:698.327 - 0.012ms returns 0x00
T4288 000:698.336 JLINK_WriteReg(R8, 0x00000000)
T4288 000:698.344 - 0.012ms returns 0x00
T4288 000:698.353 JLINK_WriteReg(R9, 0x200006E0)
T4288 000:698.361 - 0.011ms returns 0x00
T4288 000:698.370 JLINK_WriteReg(R10, 0x00000000)
T4288 000:698.378 - 0.012ms returns 0x00
T4288 000:698.387 JLINK_WriteReg(R11, 0x00000000)
T4288 000:698.395 - 0.011ms returns 0x00
T4288 000:698.404 JLINK_WriteReg(R12, 0x00000000)
T4288 000:698.412 - 0.011ms returns 0x00
T4288 000:698.421 JLINK_WriteReg(R13 (SP), 0x20002000)
T4288 000:698.430 - 0.012ms returns 0x00
T4288 000:698.439 JLINK_WriteReg(R14, 0x20000001)
T4288 000:698.447 - 0.012ms returns 0x00
T4288 000:698.456 JLINK_WriteReg(R15 (PC), 0x20000090)
T4288 000:698.465 - 0.012ms returns 0x00
T4288 000:698.474 JLINK_WriteReg(XPSR, 0x01000000)
T4288 000:698.482 - 0.012ms returns 0x00
T4288 000:698.491 JLINK_WriteReg(MSP, 0x20002000)
T4288 000:698.499 - 0.012ms returns 0x00
T4288 000:698.508 JLINK_WriteReg(PSP, 0x20002000)
T4288 000:698.517 - 0.011ms returns 0x00
T4288 000:698.526 JLINK_WriteReg(CFBP, 0x00000000)
T4288 000:698.534 - 0.012ms returns 0x00
T4288 000:698.544   JLINK_SetBPEx(Addr = 0x20000000, Type = 0xFFFFFFF2)
T4288 000:698.556 - 0.016ms returns 0x00000009
T4288 000:698.565 JLINK_Go()
T4288 000:698.581   CPU_ReadMem(4 bytes @ 0xE0001000)
T4288 000:702.960 - 4.413ms
T4288 000:702.990 JLINK_IsHalted()
T4288 000:706.823   CPU_ReadMem(2 bytes @ 0x20000000)
T4288 000:707.677 - 4.695ms returns TRUE
T4288 000:707.695 JLINK_ReadReg(R15 (PC))
T4288 000:707.710 - 0.020ms returns 0x20000000
T4288 000:707.723 JLINK_ClrBPEx(BPHandle = 0x00000009)
T4288 000:707.733 - 0.013ms returns 0x00
T4288 000:707.742 JLINK_ReadReg(R0)
T4288 000:707.751 - 0.012ms returns 0x00000000
T4288 000:766.235 JLINK_WriteMem(0x20000000, 0x06E4 Bytes, ...)
T4288 000:766.256   Data:  00 BE 0A E0 0D 78 2D 06 68 40 08 24 40 00 00 D3 ...
T4288 000:766.284   CPU_WriteMem(1764 bytes @ 0x20000000)
T4288 000:786.851 - 20.647ms returns 0x6E4
T4288 000:786.963 JLINK_WriteReg(R0, 0x00000000)
T4288 000:786.985 - 0.030ms returns 0x00
T4288 000:787.002 JLINK_WriteReg(R1, 0x03D09000)
T4288 000:787.016 - 0.020ms returns 0x00
T4288 000:787.030 JLINK_WriteReg(R2, 0x00000002)
T4288 000:787.042 - 0.017ms returns 0x00
T4288 000:787.056 JLINK_WriteReg(R3, 0x00000000)
T4288 000:787.068 - 0.018ms returns 0x00
T4288 000:787.082 JLINK_WriteReg(R4, 0x00000000)
T4288 000:787.094 - 0.018ms returns 0x00
T4288 000:787.118 JLINK_WriteReg(R5, 0x00000000)
T4288 000:787.135 - 0.024ms returns 0x00
T4288 000:787.150 JLINK_WriteReg(R6, 0x00000000)
T4288 000:787.164 - 0.020ms returns 0x00
T4288 000:787.186 JLINK_WriteReg(R7, 0x00000000)
T4288 000:787.205 - 0.025ms returns 0x00
T4288 000:787.219 JLINK_WriteReg(R8, 0x00000000)
T4288 000:787.232 - 0.018ms returns 0x00
T4288 000:787.245 JLINK_WriteReg(R9, 0x200006E0)
T4288 000:787.258 - 0.018ms returns 0x00
T4288 000:787.272 JLINK_WriteReg(R10, 0x00000000)
T4288 000:787.284 - 0.018ms returns 0x00
T4288 000:787.298 JLINK_WriteReg(R11, 0x00000000)
T4288 000:787.310 - 0.018ms returns 0x00
T4288 000:787.324 JLINK_WriteReg(R12, 0x00000000)
T4288 000:787.337 - 0.019ms returns 0x00
T4288 000:787.352 JLINK_WriteReg(R13 (SP), 0x20002000)
T4288 000:787.366 - 0.020ms returns 0x00
T4288 000:787.381 JLINK_WriteReg(R14, 0x20000001)
T4288 000:787.394 - 0.019ms returns 0x00
T4288 000:787.409 JLINK_WriteReg(R15 (PC), 0x20000020)
T4288 000:787.422 - 0.019ms returns 0x00
T4288 000:787.436 JLINK_WriteReg(XPSR, 0x01000000)
T4288 000:787.449 - 0.020ms returns 0x00
T4288 000:787.464 JLINK_WriteReg(MSP, 0x20002000)
T4288 000:787.477 - 0.019ms returns 0x00
T4288 000:787.491 JLINK_WriteReg(PSP, 0x20002000)
T4288 000:787.504 - 0.019ms returns 0x00
T4288 000:787.518 JLINK_WriteReg(CFBP, 0x00000000)
T4288 000:787.531 - 0.019ms returns 0x00
T4288 000:787.547   JLINK_SetBPEx(Addr = 0x20000000, Type = 0xFFFFFFF2)
T4288 000:787.574   CPU_ReadMem(2 bytes @ 0x20000000)
T4288 000:788.209 - 0.680ms returns 0x0000000A
T4288 000:788.240 JLINK_Go()
T4288 000:788.261   CPU_WriteMem(2 bytes @ 0x20000000)
T4288 000:788.963   CPU_ReadMem(4 bytes @ 0xE0001000)
T4288 000:793.220 - 5.000ms
T4288 000:793.260 JLINK_IsHalted()
T4288 000:796.965   CPU_ReadMem(2 bytes @ 0x20000000)
T4288 000:797.699 - 4.455ms returns TRUE
T4288 000:797.732 JLINK_ReadReg(R15 (PC))
T4288 000:797.756 - 0.032ms returns 0x20000000
T4288 000:797.774 JLINK_ClrBPEx(BPHandle = 0x0000000A)
T4288 000:797.788 - 0.020ms returns 0x00
T4288 000:797.803 JLINK_ReadReg(R0)
T4288 000:797.817 - 0.020ms returns 0x00000000
T4288 000:798.356 JLINK_WriteMem(0x200006F4, 0x090C Bytes, ...)
T4288 000:798.377   Data:  10 5F 00 20 F9 62 02 00 01 63 02 00 03 63 02 00 ...
T4288 000:798.409   CPU_WriteMem(2316 bytes @ 0x200006F4)
T4288 000:825.204 - 26.879ms returns 0x90C
T4288 000:825.252 JLINK_WriteMem(0x20001000, 0x06F4 Bytes, ...)
T4288 000:825.272   Data:  36 68 3F 1D 3E 60 5F 4E 14 36 36 68 3F 1D 3E 60 ...
T4288 000:825.303   CPU_WriteMem(1780 bytes @ 0x20001000)
T4288 000:846.283 - 21.079ms returns 0x6F4
T4288 000:846.385 JLINK_WriteReg(R0, 0x00026000)
T4288 000:846.449 - 0.084ms returns 0x00
T4288 000:846.494 JLINK_WriteReg(R1, 0x00001000)
T4288 000:846.528 - 0.050ms returns 0x00
T4288 000:846.568 JLINK_WriteReg(R2, 0x200006F4)
T4288 000:846.602 - 0.049ms returns 0x00
T4288 000:846.641 JLINK_WriteReg(R3, 0x00000000)
T4288 000:846.673 - 0.046ms returns 0x00
T4288 000:846.711 JLINK_WriteReg(R4, 0x00000000)
T4288 000:846.746 - 0.051ms returns 0x00
T4288 000:846.788 JLINK_WriteReg(R5, 0x00000000)
T4288 000:846.824 - 0.050ms returns 0x00
T4288 000:846.863 JLINK_WriteReg(R6, 0x00000000)
T4288 000:846.894 - 0.047ms returns 0x00
T4288 000:846.933 JLINK_WriteReg(R7, 0x00000000)
T4288 000:846.965 - 0.047ms returns 0x00
T4288 000:847.004 JLINK_WriteReg(R8, 0x00000000)
T4288 000:847.057 - 0.077ms returns 0x00
T4288 000:847.114 JLINK_WriteReg(R9, 0x200006E0)
T4288 000:847.151 - 0.054ms returns 0x00
T4288 000:847.194 JLINK_WriteReg(R10, 0x00000000)
T4288 000:847.230 - 0.052ms returns 0x00
T4288 000:847.271 JLINK_WriteReg(R11, 0x00000000)
T4288 000:847.304 - 0.049ms returns 0x00
T4288 000:847.345 JLINK_WriteReg(R12, 0x00000000)
T4288 000:847.378 - 0.048ms returns 0x00
T4288 000:847.417 JLINK_WriteReg(R13 (SP), 0x20002000)
T4288 000:847.452 - 0.050ms returns 0x00
T4288 000:847.492 JLINK_WriteReg(R14, 0x20000001)
T4288 000:847.527 - 0.050ms returns 0x00
T4288 000:847.567 JLINK_WriteReg(R15 (PC), 0x2000020C)
T4288 000:847.603 - 0.052ms returns 0x00
T4288 000:847.645 JLINK_WriteReg(XPSR, 0x01000000)
T4288 000:847.682 - 0.053ms returns 0x00
T4288 000:847.724 JLINK_WriteReg(MSP, 0x20002000)
T4288 000:847.770 - 0.070ms returns 0x00
T4288 000:847.820 JLINK_WriteReg(PSP, 0x20002000)
T4288 000:847.858 - 0.054ms returns 0x00
T4288 000:847.899 JLINK_WriteReg(CFBP, 0x00000000)
T4288 000:847.934 - 0.052ms returns 0x00
T4288 000:847.979   JLINK_SetBPEx(Addr = 0x20000000, Type = 0xFFFFFFF2)
T4288 000:848.028 - 0.069ms returns 0x0000000B
T4288 000:848.071 JLINK_Go()
T4288 000:848.140   CPU_ReadMem(4 bytes @ 0xE0001000)
T4288 000:852.940 - 4.898ms
T4288 000:852.998 JLINK_IsHalted()
T4288 000:853.902 - 0.925ms returns FALSE
T4288 000:885.153 JLINK_IsHalted()
T4288 000:886.199 - 1.085ms returns FALSE
T4288 000:888.130 JLINK_IsHalted()
T4288 000:888.945 - 0.839ms returns FALSE
T4288 000:890.102 JLINK_IsHalted()
T4288 000:890.912 - 0.833ms returns FALSE
T4288 000:892.100 JLINK_IsHalted()
T4288 000:892.881 - 0.795ms returns FALSE
T4288 000:894.092 JLINK_IsHalted()
T4288 000:894.901 - 0.823ms returns FALSE
T4288 000:896.093 JLINK_IsHalted()
T4288 000:896.846 - 0.769ms returns FALSE
T4288 000:898.066 JLINK_IsHalted()
T4288 000:898.840 - 0.792ms returns FALSE
T4288 000:900.093 JLINK_IsHalted()
T4288 000:900.847 - 0.774ms returns FALSE
T4288 000:902.094 JLINK_IsHalted()
T4288 000:902.900 - 0.820ms returns FALSE
T4288 000:904.086 JLINK_IsHalted()
T4288 000:904.900 - 0.827ms returns FALSE
T4288 000:906.088 JLINK_IsHalted()
T4288 000:906.898 - 0.824ms returns FALSE
T4288 000:908.085 JLINK_IsHalted()
T4288 000:908.901 - 0.829ms returns FALSE
T4288 000:910.086 JLINK_IsHalted()
T4288 000:910.829 - 0.763ms returns FALSE
T4288 000:916.082 JLINK_IsHalted()
T4288 000:916.901 - 0.833ms returns FALSE
T4288 000:918.076 JLINK_IsHalted()
T4288 000:918.898 - 0.836ms returns FALSE
T4288 000:920.076 JLINK_IsHalted()
T4288 000:920.901 - 0.838ms returns FALSE
T4288 000:922.078 JLINK_IsHalted()
T4288 000:925.882   CPU_ReadMem(2 bytes @ 0x20000000)
T4288 000:926.595 - 4.535ms returns TRUE
T4288 000:926.634 JLINK_ReadReg(R15 (PC))
T4288 000:926.664 - 0.041ms returns 0x20000000
T4288 000:926.690 JLINK_ClrBPEx(BPHandle = 0x0000000B)
T4288 000:926.713 - 0.033ms returns 0x00
T4288 000:926.739 JLINK_ReadReg(R0)
T4288 000:926.761 - 0.033ms returns 0x00000000
T4288 000:928.000 JLINK_WriteMem(0x200006F4, 0x090C Bytes, ...)
T4288 000:928.031   Data:  16 46 8D F8 00 50 68 46 00 F0 CE F8 01 A8 04 F0 ...
T4288 000:928.091   CPU_WriteMem(2316 bytes @ 0x200006F4)
T4288 000:954.878 - 26.908ms returns 0x90C
T4288 000:954.936 JLINK_WriteMem(0x20001000, 0x06F4 Bytes, ...)
T4288 000:954.965   Data:  14 4C 00 1B C0 08 02 24 04 EB 00 40 F4 2A 06 D9 ...
T4288 000:955.005   CPU_WriteMem(1780 bytes @ 0x20001000)
T4288 000:975.984 - 21.084ms returns 0x6F4
T4288 000:976.127 JLINK_WriteReg(R0, 0x00027000)
T4288 000:976.164 - 0.048ms returns 0x00
T4288 000:976.188 JLINK_WriteReg(R1, 0x00001000)
T4288 000:976.210 - 0.033ms returns 0x00
T4288 000:976.234 JLINK_WriteReg(R2, 0x200006F4)
T4288 000:976.256 - 0.032ms returns 0x00
T4288 000:976.280 JLINK_WriteReg(R3, 0x00000000)
T4288 000:976.302 - 0.032ms returns 0x00
T4288 000:976.326 JLINK_WriteReg(R4, 0x00000000)
T4288 000:976.348 - 0.032ms returns 0x00
T4288 000:976.372 JLINK_WriteReg(R5, 0x00000000)
T4288 000:976.394 - 0.032ms returns 0x00
T4288 000:976.418 JLINK_WriteReg(R6, 0x00000000)
T4288 000:976.441 - 0.032ms returns 0x00
T4288 000:976.464 JLINK_WriteReg(R7, 0x00000000)
T4288 000:976.490 - 0.033ms returns 0x00
T4288 000:976.506 JLINK_WriteReg(R8, 0x00000000)
T4288 000:976.520 - 0.020ms returns 0x00
T4288 000:976.535 JLINK_WriteReg(R9, 0x200006E0)
T4288 000:976.549 - 0.020ms returns 0x00
T4288 000:976.564 JLINK_WriteReg(R10, 0x00000000)
T4288 000:976.578 - 0.020ms returns 0x00
T4288 000:976.593 JLINK_WriteReg(R11, 0x00000000)
T4288 000:976.606 - 0.019ms returns 0x00
T4288 000:976.621 JLINK_WriteReg(R12, 0x00000000)
T4288 000:976.635 - 0.019ms returns 0x00
T4288 000:976.649 JLINK_WriteReg(R13 (SP), 0x20002000)
T4288 000:976.664 - 0.021ms returns 0x00
T4288 000:976.679 JLINK_WriteReg(R14, 0x20000001)
T4288 000:976.692 - 0.019ms returns 0x00
T4288 000:976.715 JLINK_WriteReg(R15 (PC), 0x2000020C)
T4288 000:976.734 - 0.026ms returns 0x00
T4288 000:976.750 JLINK_WriteReg(XPSR, 0x01000000)
T4288 000:976.763 - 0.019ms returns 0x00
T4288 000:976.778 JLINK_WriteReg(MSP, 0x20002000)
T4288 000:976.791 - 0.019ms returns 0x00
T4288 000:976.806 JLINK_WriteReg(PSP, 0x20002000)
T4288 000:976.820 - 0.020ms returns 0x00
T4288 000:976.835 JLINK_WriteReg(CFBP, 0x00000000)
T4288 000:976.848 - 0.020ms returns 0x00
T4288 000:976.865   JLINK_SetBPEx(Addr = 0x20000000, Type = 0xFFFFFFF2)
T4288 000:976.886 - 0.028ms returns 0x0000000C
T4288 000:976.901 JLINK_Go()
T4288 000:976.931   CPU_ReadMem(4 bytes @ 0xE0001000)
T4288 000:981.262 - 4.382ms
T4288 000:981.301 JLINK_IsHalted()
T4288 000:982.090 - 0.805ms returns FALSE
T4288 000:986.040 JLINK_IsHalted()
T4288 000:986.848 - 0.824ms returns FALSE
T4288 000:988.012 JLINK_IsHalted()
T4288 000:988.850 - 0.860ms returns FALSE
T4288 000:993.025 JLINK_IsHalted()
T4288 000:993.846 - 0.836ms returns FALSE
T4288 000:995.019 JLINK_IsHalted()
T4288 000:995.592 - 0.588ms returns FALSE
T4288 000:997.048 JLINK_IsHalted()
T4288 000:997.898 - 0.867ms returns FALSE
T4288 001:000.046 JLINK_IsHalted()
T4288 001:000.841 - 0.811ms returns FALSE
T4288 001:002.027 JLINK_IsHalted()
T4288 001:002.897 - 0.885ms returns FALSE
T4288 001:005.023 JLINK_IsHalted()
T4288 001:005.719 - 0.713ms returns FALSE
T4288 001:007.029 JLINK_IsHalted()
T4288 001:007.896 - 0.881ms returns FALSE
T4288 001:009.994 JLINK_IsHalted()
T4288 001:010.578 - 0.600ms returns FALSE
T4288 001:012.029 JLINK_IsHalted()
T4288 001:012.901 - 0.886ms returns FALSE
T4288 001:015.021 JLINK_IsHalted()
T4288 001:015.773 - 0.766ms returns FALSE
T4288 001:016.998 JLINK_IsHalted()
T4288 001:017.594 - 0.615ms returns FALSE
T4288 001:025.020 JLINK_IsHalted()
T4288 001:025.900 - 0.894ms returns FALSE
T4288 001:028.019 JLINK_IsHalted()
T4288 001:028.900 - 0.895ms returns FALSE
T4288 001:031.010 JLINK_IsHalted()
T4288 001:031.901 - 0.906ms returns FALSE
T4288 001:034.010 JLINK_IsHalted()
T4288 001:034.774 - 0.778ms returns FALSE
T4288 001:036.009 JLINK_IsHalted()
T4288 001:036.774 - 0.779ms returns FALSE
T4288 001:038.010 JLINK_IsHalted()
T4288 001:038.780 - 0.784ms returns FALSE
T4288 001:039.980 JLINK_IsHalted()
T4288 001:040.586 - 0.628ms returns FALSE
T4288 001:041.980 JLINK_IsHalted()
T4288 001:042.589 - 0.627ms returns FALSE
T4288 001:043.985 JLINK_IsHalted()
T4288 001:044.732 - 0.761ms returns FALSE
T4288 001:045.981 JLINK_IsHalted()
T4288 001:046.587 - 0.625ms returns FALSE
T4288 001:047.973 JLINK_IsHalted()
T4288 001:048.585 - 0.634ms returns FALSE
T4288 001:049.977 JLINK_IsHalted()
T4288 001:053.516   CPU_ReadMem(2 bytes @ 0x20000000)
T4288 001:054.363 - 4.406ms returns TRUE
T4288 001:054.402 JLINK_ReadReg(R15 (PC))
T4288 001:054.426 - 0.031ms returns 0x20000000
T4288 001:054.443 JLINK_ClrBPEx(BPHandle = 0x0000000C)
T4288 001:054.458 - 0.021ms returns 0x00
T4288 001:054.474 JLINK_ReadReg(R0)
T4288 001:054.488 - 0.020ms returns 0x00000000
T4288 001:056.110 JLINK_WriteMem(0x200006F4, 0x090C Bytes, ...)
T4288 001:056.145   Data:  30 50 44 F8 23 10 00 2A F5 D1 E1 18 81 F8 48 00 ...
T4288 001:056.182   CPU_WriteMem(2316 bytes @ 0x200006F4)
T4288 001:083.056 - 26.975ms returns 0x90C
T4288 001:083.109 JLINK_WriteMem(0x20001000, 0x06F4 Bytes, ...)
T4288 001:083.127   Data:  20 60 00 E0 25 60 65 60 01 20 A5 60 20 74 20 46 ...
T4288 001:083.167   CPU_WriteMem(1780 bytes @ 0x20001000)
T4288 001:104.130 - 21.054ms returns 0x6F4
T4288 001:104.275 JLINK_WriteReg(R0, 0x00028000)
T4288 001:104.306 - 0.040ms returns 0x00
T4288 001:104.323 JLINK_WriteReg(R1, 0x00001000)
T4288 001:104.337 - 0.020ms returns 0x00
T4288 001:104.352 JLINK_WriteReg(R2, 0x200006F4)
T4288 001:104.366 - 0.020ms returns 0x00
T4288 001:104.381 JLINK_WriteReg(R3, 0x00000000)
T4288 001:104.394 - 0.019ms returns 0x00
T4288 001:104.409 JLINK_WriteReg(R4, 0x00000000)
T4288 001:104.431 - 0.034ms returns 0x00
T4288 001:104.458 JLINK_WriteReg(R5, 0x00000000)
T4288 001:104.493 - 0.052ms returns 0x00
T4288 001:104.525 JLINK_WriteReg(R6, 0x00000000)
T4288 001:104.545 - 0.030ms returns 0x00
T4288 001:104.567 JLINK_WriteReg(R7, 0x00000000)
T4288 001:104.589 - 0.032ms returns 0x00
T4288 001:104.613 JLINK_WriteReg(R8, 0x00000000)
T4288 001:104.635 - 0.032ms returns 0x00
T4288 001:104.660 JLINK_WriteReg(R9, 0x200006E0)
T4288 001:104.683 - 0.034ms returns 0x00
T4288 001:104.710 JLINK_WriteReg(R10, 0x00000000)
T4288 001:104.733 - 0.032ms returns 0x00
T4288 001:104.755 JLINK_WriteReg(R11, 0x00000000)
T4288 001:104.777 - 0.032ms returns 0x00
T4288 001:104.801 JLINK_WriteReg(R12, 0x00000000)
T4288 001:104.825 - 0.035ms returns 0x00
T4288 001:104.851 JLINK_WriteReg(R13 (SP), 0x20002000)
T4288 001:104.875 - 0.035ms returns 0x00
T4288 001:104.900 JLINK_WriteReg(R14, 0x20000001)
T4288 001:104.926 - 0.037ms returns 0x00
T4288 001:104.951 JLINK_WriteReg(R15 (PC), 0x2000020C)
T4288 001:104.982 - 0.042ms returns 0x00
T4288 001:105.008 JLINK_WriteReg(XPSR, 0x01000000)
T4288 001:105.034 - 0.041ms returns 0x00
T4288 001:105.060 JLINK_WriteReg(MSP, 0x20002000)
T4288 001:105.076 - 0.022ms returns 0x00
T4288 001:105.091 JLINK_WriteReg(PSP, 0x20002000)
T4288 001:105.105 - 0.019ms returns 0x00
T4288 001:105.119 JLINK_WriteReg(CFBP, 0x00000000)
T4288 001:105.133 - 0.019ms returns 0x00
T4288 001:105.149   JLINK_SetBPEx(Addr = 0x20000000, Type = 0xFFFFFFF2)
T4288 001:105.171 - 0.028ms returns 0x0000000D
T4288 001:105.187 JLINK_Go()
T4288 001:105.239   CPU_ReadMem(4 bytes @ 0xE0001000)
T4288 001:109.462 - 4.310ms
T4288 001:109.521 JLINK_IsHalted()
T4288 001:110.089 - 0.595ms returns FALSE
T4288 001:114.980 JLINK_IsHalted()
T4288 001:115.928 - 0.976ms returns FALSE
T4288 001:117.954 JLINK_IsHalted()
T4288 001:118.806 - 0.867ms returns FALSE
T4288 001:119.957 JLINK_IsHalted()
